Sample in Buffer,Sample in Window,TRIGGER,check_40G_sim_i/system_ila_2/inst/probe0_1[3:0],check_40G_sim_i/system_ila_2/inst/probe1_1[1:0],check_40G_sim_i/system_ila_2/inst/net_slot_0_axis_tdata[127:0],check_40G_sim_i/system_ila_2/inst/net_slot_0_axis_tuser[69:0],check_40G_sim_i/system_ila_2/inst/net_slot_0_axis_tvalid,check_40G_sim_i/system_ila_2/inst/net_slot_0_axis_tready,check_40G_sim_i/system_ila_2/inst/net_slot_0_axis_tlast,check_40G_sim_i/system_ila_2/inst/net_slot_1_axis_tdata[127:0],check_40G_sim_i/system_ila_2/inst/net_slot_1_axis_tuser[69:0],check_40G_sim_i/system_ila_2/inst/net_slot_1_axis_tvalid,check_40G_sim_i/system_ila_2/inst/net_slot_1_axis_tready,check_40G_sim_i/system_ila_2/inst/net_slot_1_axis_tlast,check_40G_sim_i/system_ila_2/inst/net_slot_2_axis_tdata[127:0],check_40G_sim_i/system_ila_2/inst/net_slot_2_axis_tkeep[15:0],check_40G_sim_i/system_ila_2/inst/net_slot_2_axis_tvalid,check_40G_sim_i/system_ila_2/inst/net_slot_2_axis_tready,check_40G_sim_i/system_ila_2/inst/net_slot_2_axis_tlast,check_40G_sim_i/system_ila_2/inst/net_slot_3_axis_tdata[127:0],check_40G_sim_i/system_ila_2/inst/net_slot_3_axis_tvalid,check_40G_sim_i/system_ila_2/inst/net_slot_3_axis_tready,check_40G_sim_i/system_ila_2/inst/net_slot_3_axis_tlast,check_40G_sim_i/system_ila_2/inst/net_slot_4_axis_tdata[63:0],check_40G_sim_i/system_ila_2/inst/net_slot_4_axis_tvalid,check_40G_sim_i/system_ila_2/inst/net_slot_4_axis_tready,check_40G_sim_i/system_ila_2/inst/net_slot_4_axis_tlast,Interface_(i3:s0)_(ecpri_demux_0_control_data_out)[2:0],Interface_(i3:s1)_(ecpri_demux_0_user_data_out)[2:0],Interface_(i3:s2)_(uplane_depacketiser_0_data_out)[2:0],Interface_(i3:s3)_(cplane_depacketizer_0_beam_data)[2:0],Interface_(i3:s4)_(cplane_depacketizer_0_beam_info_V)[2:0],T_Channel_(i3:s0)_(ecpri_demux_0_control_data_out)[2:0],T_Channel_(i3:s1)_(ecpri_demux_0_user_data_out)[2:0],T_Channel_(i3:s2)_(uplane_depacketiser_0_data_out)[2:0],T_Channel_(i3:s3)_(cplane_depacketizer_0_beam_data)[2:0],T_Channel_(i3:s4)_(cplane_depacketizer_0_beam_info_V)[2:0]
Radix - UNSIGNED,UNSIGNED,UNSIGNED,HEX,HEX,HEX,HEX,HEX,HEX,HEX,HEX,HEX,HEX,HEX,HEX,HEX,HEX,HEX,HEX,HEX,HEX,HEX,HEX,HEX,HEX,HEX,HEX,HEX,HEX,HEX,HEX,HEX,HEX,HEX,HEX,HEX,HEX,HEX
0,0,0,0,2,71b9df07bbb65a26ac60179a3be46bb7,0081555555555555d5,1,1,0,71b9df07bbb65a26ac60179a3be46bb7,0081555555555555d5,0,1,0,00000000000000000000000000000000,0000,0,1,0,e8180acf8710a1b4e49ff218961b0b83,1,1,0,0fff0072180800e0,0,1,0,"_","_","_","_","_","_","_","_","_","_"
1,1,0,0,2,67c80a0fdc38e2faad6ef3c5cf64a17d,0081555555555555d5,1,1,0,67c80a0fdc38e2faad6ef3c5cf64a17d,0081555555555555d5,0,1,0,00000000000000000000000000000000,0000,0,1,0,c7b76be43b9a1760ac265ab6bb07dfb9,1,1,0,0fff005ab60800e0,0,1,0,"Active","_","_","Active","_","Stream Beat","_","_","Stream Beat","_"
2,2,0,0,2,21eee8e324aedc802c7cc5b4c2948bbb,0081555555555555d5,1,1,0,21eee8e324aedc802c7cc5b4c2948bbb,0081555555555555d5,0,1,0,00000000000000000000000000000000,0000,0,1,0,717da164cfc5f36eadfae238dc0f0ac8,1,1,0,0fff0062380800e0,0,1,0,"Active","_","_","Active","_","Stream Beat","_","_","Stream Beat","_"
3,3,0,0,2,7e9ccf87ad722a56dc80f7b135ca67b0,0081555555555555d5,1,1,0,7e9ccf87ad722a56dc80f7b135ca67b0,0081555555555555d5,0,1,0,00000000000000000000000000000000,0000,0,1,0,67bb8b94c2b4c57c2c80dcae24e3e8ee,1,1,0,0fff005cae0800e0,0,1,0,"Active","_","_","Active","_","Stream Beat","_","_","Stream Beat","_"
4,4,0,0,2,1e6286bbdd244aa5ebe43c8caddc2bef,0081555555555555d5,1,1,0,1e6286bbdd244aa5ebe43c8caddc2bef,0081555555555555d5,0,1,0,00000000000000000000000000000000,0000,0,1,0,21b067ca35b1f780dc562a72ad87cf9c,1,1,0,0fff002a720800e0,0,1,0,"Active","_","_","Active","_","Stream Beat","_","_","Stream Beat","_"
5,5,0,0,2,eb46a553116696f4e2bc31f277e7dfb1,0081555555555555d5,1,1,0,eb46a553116696f4e2bc31f277e7dfb1,0081555555555555d5,0,1,0,00000000000000000000000000000000,0000,0,1,0,7eef2bdcad8c3ce4eba54a24ddbb8662,1,1,0,0fff004a240800e0,0,1,0,"Active","_","_","Active","_","Stream Beat","_","_","Stream Beat","_"
6,6,0,0,2,593256bd0739e8a17e6b64474e444f9a,0081555555555555d5,1,1,0,593256bd0739e8a17e6b64474e444f9a,0081555555555555d5,0,1,0,00000000000000000000000000000000,0000,0,1,0,1eb1dfe777f231bce2f496661153a546,1,1,0,0fff0016660800e0,0,1,0,"Active","_","_","Active","_","Stream Beat","_","_","Stream Beat","_"
7,7,0,0,2,5ce2064d5de66e4c4b70704d097375be,0081555555555555d5,1,1,0,5ce2064d5de66e4c4b70704d097375be,0081555555555555d5,0,1,0,00000000000000000000000000000000,0000,0,1,0,eb9a4f444e47646b7ea1e83907bd5632,1,1,0,0fff0068390800e0,0,1,0,"Active","_","_","Active","_","Stream Beat","_","_","Stream Beat","_"
8,8,0,0,2,d2175f22f6bd9884da4185a499ed5e87,0081555555555555d5,1,1,0,d2175f22f6bd9884da4185a499ed5e87,0081555555555555d5,0,1,0,00000000000000000000000000000000,0000,0,1,0,59be7573094d70704b4c6ee65d4d06e2,1,1,0,0fff006ee60800e0,0,1,0,"Active","_","_","Active","_","Stream Beat","_","_","Stream Beat","_"
9,9,0,0,2,728be390e64e2ad2cece81b720171158,0081555555555555d5,1,1,0,728be390e64e2ad2cece81b720171158,0081555555555555d5,0,1,0,00000000000000000000000000000000,0000,0,1,0,5c875eed99a48541da8498bdf6225f17,1,1,0,0fff0018bd0800e0,0,1,0,"Active","_","_","Active","_","Stream Beat","_","_","Stream Beat","_"
10,10,0,0,2,00128200e75dbda69c7ce376b422533d,0081555555555555d5,1,1,0,00128200e75dbda69c7ce376b422533d,0081555555555555d5,0,1,0,00000000000000000000000000000000,0000,0,1,0,d258111720b781ceced22a4ee690e38b,1,1,0,0fff002a4e0800e0,0,1,0,"Active","_","_","Active","_","Stream Beat","_","_","Stream Beat","_"
11,11,0,0,2,00000000000000000000000000000000,0281555555555555d5,1,1,0,00000000000000000000000000000000,0281555555555555d5,0,1,0,00000000000000000000000000000000,0000,0,1,0,723d5322b476e37c9ca6bd5de7008212,1,1,0,0fff002a4e0800e0,0,1,0,"Active","_","_","Active","_","Stream Beat","_","_","Stream Beat","_"
12,12,0,0,0,0200aefe413bbb000002ffffffffffff,0083555555555555d5,0,0,0,0200aefe413bbb000002ffffffffffff,0083555555555555d5,0,1,0,00000000000000000000000000000000,0000,0,1,0,7200000000000022b476e37c9ca6bd5d,0,1,0,0fff0000000800e0,1,1,0,"_","_","_","_","Active","_","_","_","_","Stream Beat"
13,13,0,0,2,40120000010a80720500000001000000,0081555555555555d5,1,1,0,40120000010a80720500000001000000,0081555555555555d5,0,1,0,00000000000000000000000000000000,0000,0,1,0,0000000000000022b476e37c9ca6bd5d,0,1,0,0fff002a4e0800e0,0,1,0,"Active","_","_","_","_","Stream Beat","_","_","_","_"
14,14,0,0,2,b9110b0000040050008bff0ffeff0808,0081555555555555d5,1,1,0,b9110b0000040050008bff0ffeff0808,0081555555555555d5,0,1,0,00000000000000000000000000000000,0000,0,1,0,0000000000000022b476e37c9ca6bd5d,0,1,0,0fff0000000800e0,1,1,0,"Active","_","_","_","Active","Stream Beat","_","_","_","Stream Beat"
15,15,0,0,2,2aeb281733aa0c9454845a71bd512c89,0081555555555555d5,1,1,0,2aeb281733aa0c9454845a71bd512c89,0081555555555555d5,0,1,0,00000000000000000000000000000000,0000,0,1,0,00010000000572800a01000012400808,1,1,0,0fff002a4e0800e0,0,1,0,"Active","_","_","Active","_","Stream Beat","_","_","Stream Beat","_"
16,16,0,0,2,3025cddd2799894fd44500f4e8063319,0081555555555555d5,1,1,0,3025cddd2799894fd44500f4e8063319,0081555555555555d5,0,1,0,00000000000000000000000000000000,0000,0,1,0,fffe0fff8b0050000400000b11b9892c,1,1,0,0fff002a4e0800e0,0,1,0,"Active","_","_","Active","_","Stream Beat","_","_","Stream Beat","_"
17,17,0,0,2,6531d3e09798409f72d7f6c6c7bad841,0081555555555555d5,1,1,0,6531d3e09798409f72d7f6c6c7bad841,0081555555555555d5,0,1,0,00000000000000000000000000000000,0000,0,1,0,51bd715a8454940caa331728eb2a1933,1,1,0,0fff002a4e0800e0,0,1,0,"Active","_","_","Active","_","Stream Beat","_","_","Stream Beat","_"
18,18,0,0,2,9c896d2c46ad51b32d21e4abfd602448,0081555555555555d5,1,1,0,9c896d2c46ad51b32d21e4abfd602448,0081555555555555d5,0,1,0,00000000000000000000000000000000,0000,0,1,0,06e8f40045d44f899927ddcd253041d8,1,1,0,0fff002a4e0800e0,0,1,0,"Active","_","_","Active","_","Stream Beat","_","_","Stream Beat","_"
19,19,0,0,2,881b692fc3d8e74ae88a0726ea9ebfd2,0081555555555555d5,1,1,0,881b692fc3d8e74ae88a0726ea9ebfd2,0081555555555555d5,0,1,0,00000000000000000000000000000000,0000,0,1,0,bac7c6f6d7729f409897e0d331654824,1,1,0,0fff002a4e0800e0,0,1,0,"Active","_","_","Active","_","Stream Beat","_","_","Stream Beat","_"
20,20,0,0,2,7070a32fa0014921b835b5a5c032a844,0081555555555555d5,1,1,0,7070a32fa0014921b835b5a5c032a844,0081555555555555d5,0,1,0,00000000000000000000000000000000,0000,0,1,0,60fdabe4212db351ad462c6d899cd2bf,1,1,0,0fff002a4e0800e0,0,1,0,"Active","_","_","Active","_","Stream Beat","_","_","Stream Beat","_"
21,21,0,0,2,c2d6baa8b81ac604524d4255a8ed654f,0081555555555555d5,1,1,0,c2d6baa8b81ac604524d4255a8ed654f,0081555555555555d5,0,1,0,00000000000000000000000000000000,0000,0,1,0,9eea26078ae84ae7d8c32f691b8844a8,1,1,0,0fff002a4e0800e0,0,1,0,"Active","_","_","Active","_","Stream Beat","_","_","Stream Beat","_"
22,22,0,0,2,83c4a89401f014c3956c7301f926f10e,0081555555555555d5,1,1,0,83c4a89401f014c3956c7301f926f10e,0081555555555555d5,0,1,0,00000000000000000000000000000000,0000,0,1,0,32c0a5b535b8214901a02fa370704f65,1,1,0,0fff002a4e0800e0,0,1,0,"Active","_","_","Active","_","Stream Beat","_","_","Stream Beat","_"
23,23,0,0,2,0a80f41f4dbacffdcdf2bb402e599138,0081555555555555d5,1,1,0,0a80f41f4dbacffdcdf2bb402e599138,0081555555555555d5,0,1,0,00000000000000000000000000000000,0000,0,1,0,eda855424d5204c61ab8a8bad6c20ef1,1,1,0,0fff002a4e0800e0,0,1,0,"Active","_","_","Active","_","Stream Beat","_","_","Stream Beat","_"
24,24,0,0,2,0b5c6a4995df51dd1bfe2702ff3622fc,0081555555555555d5,1,1,0,0b5c6a4995df51dd1bfe2702ff3622fc,0081555555555555d5,0,1,0,00000000000000000000000000000000,0000,0,1,0,26f901736c95c314f00194a8c4833891,1,1,0,0fff002a4e0800e0,0,1,0,"Active","_","_","Active","_","Stream Beat","_","_","Stream Beat","_"
25,25,0,0,2,b4105ed5b83ef9a2fe05efa289484d63,0081555555555555d5,1,1,0,b4105ed5b83ef9a2fe05efa289484d63,0081555555555555d5,0,1,0,00000000000000000000000000000000,0000,0,1,0,592e40bbf2cdfdcfba4d1ff4800afc22,1,1,0,0fff002a4e0800e0,0,1,0,"Active","_","_","Active","_","Stream Beat","_","_","Stream Beat","_"
26,26,0,0,2,933edd4894dadd085b0ab495051afe17,0081555555555555d5,1,1,0,933edd4894dadd085b0ab495051afe17,0081555555555555d5,0,1,0,00000000000000000000000000000000,0000,0,1,0,36ff0227fe1bdd51df95496a5c0b634d,1,1,0,0fff002a4e0800e0,0,1,0,"Active","_","_","Active","_","Stream Beat","_","_","Stream Beat","_"
27,27,0,0,2,5cc3e5c32cfffd9adb8de202620860ce,0081555555555555d5,1,1,0,5cc3e5c32cfffd9adb8de202620860ce,0081555555555555d5,0,1,0,00000000000000000000000000000000,0000,0,1,0,4889a2ef05fea2f93eb8d55e10b417fe,1,1,0,0fff002a4e0800e0,0,1,0,"Active","_","_","Active","_","Stream Beat","_","_","Stream Beat","_"
28,28,0,0,2,17fb130c8901e19968d17136e8170921,0081555555555555d5,1,1,0,17fb130c8901e19968d17136e8170921,0081555555555555d5,0,1,0,00000000000000000000000000000000,0000,0,1,0,1a0595b40a5b08ddda9448dd3e93ce60,1,1,0,0fff002a4e0800e0,0,1,0,"Active","_","_","Active","_","Stream Beat","_","_","Stream Beat","_"
29,29,0,0,2,f5a54cb7b06bd979ac69757938da283e,0081555555555555d5,1,1,0,f5a54cb7b06bd979ac69757938da283e,0081555555555555d5,0,1,0,00000000000000000000000000000000,0000,0,1,0,086202e28ddb9afdff2cc3e5c35c2109,1,1,0,0fff0068360800e0,1,1,0,"Active","_","_","Active","Active","Stream Beat","_","_","Stream Beat","Stream Beat"
30,30,0,0,2,004df7bc3ff50ecaa259a4fd5fad398c,0081555555555555d5,1,1,0,004df7bc3ff50ecaa259a4fd5fad398c,0081555555555555d5,0,1,0,00000000000000000000000000000000,0000,0,1,0,71d16899e101890c13fb173e28da3879,1,1,0,0fff002a4e0800e0,0,1,0,"Active","_","_","Active","_","Stream Beat","_","_","Stream Beat","_"
31,31,0,0,2,d0425a150b9e76e423232eb2a501120b,0081555555555555d5,1,1,0,d0425a150b9e76e423232eb2a501120b,0081555555555555d5,0,1,0,00000000000000000000000000000000,0000,0,1,0,7569ac79d96bb0b74ca5f58c39ad5ffd,1,1,0,0fff002a4e0800e0,0,1,0,"Active","_","_","Active","_","Stream Beat","_","_","Stream Beat","_"
32,32,0,0,2,936a7b3d73cc2c8b6bd73708860ecdd4,0081555555555555d5,1,1,0,936a7b3d73cc2c8b6bd73708860ecdd4,0081555555555555d5,0,1,0,00000000000000000000000000000000,0000,0,1,0,a459a2ca0ef53fbcf74d000b1201a5b2,1,1,0,0fff002a4e0800e0,0,1,0,"Active","_","_","Active","_","Stream Beat","_","_","Stream Beat","_"
33,33,0,0,2,6e424217f9354e39b938846743b4b93e,0081555555555555d5,1,1,0,6e424217f9354e39b938846743b4b93e,0081555555555555d5,0,1,0,00000000000000000000000000000000,0000,0,1,0,2e2323e4769e0b155a42d0d4cd0e8608,1,1,0,0fff002a4e0800e0,0,1,0,"Active","_","_","Active","_","Stream Beat","_","_","Stream Beat","_"
34,34,0,0,2,71502a500c66c741bbb49bc9d9983602,0081555555555555d5,1,1,0,71502a500c66c741bbb49bc9d9983602,0081555555555555d5,0,1,0,00000000000000000000000000000000,0000,0,1,0,37d76b8b2ccc733d7b6a933eb9b44367,1,1,0,0fff002a4e0800e0,0,1,0,"Active","_","_","Active","_","Stream Beat","_","_","Stream Beat","_"
35,35,0,0,2,d6afe8485a8238ed2607dfaf19d42bd5,0081555555555555d5,1,1,0,d6afe8485a8238ed2607dfaf19d42bd5,0081555555555555d5,0,1,0,00000000000000000000000000000000,0000,0,1,0,8438b9394e35f91742426e023698d9c9,1,1,0,0fff002a4e0800e0,0,1,0,"Active","_","_","Active","_","Stream Beat","_","_","Stream Beat","_"
36,36,0,0,2,4c84a012ce641c196120cc0c26387882,0081555555555555d5,1,1,0,4c84a012ce641c196120cc0c26387882,0081555555555555d5,0,1,0,00000000000000000000000000000000,0000,0,1,0,9bb4bb41c7660c502a5071d52bd419af,1,1,0,0fff002a4e0800e0,0,1,0,"Active","_","_","Active","_","Stream Beat","_","_","Stream Beat","_"
37,37,0,0,2,5da33ad873982649912108b2d39ca062,0081555555555555d5,1,1,0,5da33ad873982649912108b2d39ca062,0081555555555555d5,0,1,0,00000000000000000000000000000000,0000,0,1,0,df0726ed38825a48e8afd6827838260c,1,1,0,0fff002a4e0800e0,0,1,0,"Active","_","_","Active","_","Stream Beat","_","_","Stream Beat","_"
38,38,0,0,2,b87811289f14e25c9b05355175a0f6e3,0081555555555555d5,1,1,0,b87811289f14e25c9b05355175a0f6e3,0081555555555555d5,0,1,0,00000000000000000000000000000000,0000,0,1,0,cc2061191c64ce12a0844c62a09cd3b2,1,1,0,0fff002a4e0800e0,0,1,0,"Active","_","_","Active","_","Stream Beat","_","_","Stream Beat","_"
39,39,0,0,2,236dcca334cc8b080d388ae4bffc52f3,0081555555555555d5,1,1,0,236dcca334cc8b080d388ae4bffc52f3,0081555555555555d5,0,1,0,00000000000000000000000000000000,0000,0,1,0,08219149269873d83aa35de3f6a07551,1,1,0,0fff002a4e0800e0,0,1,0,"Active","_","_","Active","_","Stream Beat","_","_","Stream Beat","_"
40,40,0,0,2,6eb1cf0a3d9c725a5d7204ecb15320ee,0081555555555555d5,1,1,0,6eb1cf0a3d9c725a5d7204ecb15320ee,0081555555555555d5,0,1,0,00000000000000000000000000000000,0000,0,1,0,35059b5ce2149f281178b8f352fcbfe4,1,1,0,0fff002a4e0800e0,0,1,0,"Active","_","_","Active","_","Stream Beat","_","_","Stream Beat","_"
41,41,0,0,2,3cc365c00ebbedd54f8804bb63907932,0081555555555555d5,1,1,0,3cc365c00ebbedd54f8804bb63907932,0081555555555555d5,0,1,0,00000000000000000000000000000000,0000,0,1,0,8a380d088bcc34a3cc6d23ee2053b1ec,1,1,0,0fff002a4e0800e0,0,1,0,"Active","_","_","Active","_","Stream Beat","_","_","Stream Beat","_"
42,42,0,0,2,d73c1b0df5d6203d6b32225e84c09689,0081555555555555d5,1,1,0,d73c1b0df5d6203d6b32225e84c09689,0081555555555555d5,0,1,0,00000000000000000000000000000000,0000,0,1,0,04725d5a729c3d0acfb16e32799063bb,1,1,0,0fff002a4e0800e0,0,1,0,"Active","_","_","Active","_","Stream Beat","_","_","Stream Beat","_"
43,43,0,0,2,027b2dd1c3ccb1ccb2d00e7772a2100c,0081555555555555d5,1,1,0,027b2dd1c3ccb1ccb2d00e7772a2100c,0081555555555555d5,0,1,0,00000000000000000000000000000000,0000,0,1,0,04884fd5edbb0ec065c33c8996c0845e,1,1,0,0fff002a4e0800e0,0,1,0,"Active","_","_","Active","_","Stream Beat","_","_","Stream Beat","_"
44,44,0,0,2,00120ff89d5b560ce60ebaa8bbf062ce,0081555555555555d5,1,1,0,00120ff89d5b560ce60ebaa8bbf062ce,0081555555555555d5,0,1,0,00000000000000000000000000000000,0000,0,1,0,22326b3d20d6f50d1b3cd70c10a27277,1,1,0,0fff002a4e0800e0,0,1,0,"Active","_","_","Active","_","Stream Beat","_","_","Stream Beat","_"
45,45,0,0,2,5feee23f8ab13c08be165ea77101136c,0081555555555555d5,1,1,0,5feee23f8ab13c08be165ea77101136c,0081555555555555d5,0,1,0,00000000000000000000000000000000,0000,0,1,0,0ed0b2ccb1ccc3d12d7b02ce62f0bba8,1,1,0,0fff000ee60800e0,1,1,0,"Active","_","_","Active","Active","Stream Beat","_","_","Stream Beat","Stream Beat"
46,46,0,0,2,02547467ecf01ffc3f5e872b1b363848,0081555555555555d5,1,1,0,02547467ecf01ffc3f5e872b1b363848,0081555555555555d5,0,1,0,00000000000000000000000000000000,0000,0,1,0,0c565b9df80f12006c130171a75e16be,1,1,0,0fff002a4e0800e0,0,1,0,"Active","_","_","Active","_","Stream Beat","_","_","Stream Beat","_"
47,47,0,0,2,0000000000000000000000000000a945,0281555555555555d5,1,1,0,0000000000000000000000000000a945,0281555555555555d5,0,1,0,00000000000000000000000000000000,0000,0,1,0,083cb18a3fe2ee5f4838361b2b875e3f,1,1,0,0fff002a4e0800e0,0,1,0,"Active","_","_","Active","_","Stream Beat","_","_","Stream Beat","_"
48,48,0,0,0,0200aefe413bbb000002ffffffffffff,0083555555555555d5,0,0,0,0200aefe413bbb000002ffffffffffff,0083555555555555d5,0,1,0,00000000000000000000000000000000,0000,0,1,0,fc1ff0ec6774540245a9000000000000,1,1,0,0fff002a4e0800e0,0,1,0,"_","_","_","Active","_","_","_","_","Stream Beat","_"
49,49,0,0,2,50120000010a80720500000001000000,0081555555555555d5,1,1,0,50120000010a80720500000001000000,0081555555555555d5,0,1,0,00000000000000000000000000000000,0000,0,1,0,000000000000a9000000000000a6bd5d,0,1,0,0fff002a4e0800e0,0,1,0,"Active","_","_","_","_","Stream Beat","_","_","_","_"
50,50,0,0,2,46110c0000040050008bff0ffeff0c10,0081555555555555d5,1,1,0,46110c0000040050008bff0ffeff0c10,0081555555555555d5,0,1,0,00000000000000000000000000000000,0000,0,1,0,00000000000000002d7b020000000100,1,1,0,0fff0000050800e0,1,1,0,"Active","_","_","Active","Active","Stream Beat","_","_","Stream Beat","Stream Beat"
51,51,0,0,2,52f8eeaf63a91a39314599f9e5ee4c54,0081555555555555d5,1,1,0,52f8eeaf63a91a39314599f9e5ee4c54,0081555555555555d5,0,1,0,00000000000000000000000000000000,0000,0,1,0,72800a0100001250100cfffe0fff8b00,1,1,0,0fff002a4e0800e0,0,1,0,"Active","_","_","Active","_","Stream Beat","_","_","Stream Beat","_"
52,52,0,0,2,aa5a1e5d329c72bd3412891cb2a32821,0081555555555555d5,1,1,0,aa5a1e5d329c72bd3412891cb2a32821,0081555555555555d5,0,1,0,00000000000000000000000000000000,0000,0,1,0,50000400000c1146544ceee5f9994531,1,1,0,0fff002a4e0800e0,0,1,0,"Active","_","_","Active","_","Stream Beat","_","_","Stream Beat","_"
53,53,0,0,2,7c09d1bae704ba7be62263cd3dc8012c,0081555555555555d5,1,1,0,7c09d1bae704ba7be62263cd3dc8012c,0081555555555555d5,0,1,0,00000000000000000000000000000000,0000,0,1,0,391aa963afeef8522128a3b21c891234,1,1,0,0fff002a4e0800e0,0,1,0,"Active","_","_","Active","_","Stream Beat","_","_","Stream Beat","_"
54,54,0,0,2,36db9be9c2f75bec789327add2d239a4,0081555555555555d5,1,1,0,36db9be9c2f75bec789327add2d239a4,0081555555555555d5,0,1,0,00000000000000000000000000000000,0000,0,1,0,bd729c325d1e5aaa2c01c83dcd6322e6,1,1,0,0fff002a4e0800e0,0,1,0,"Active","_","_","Active","_","Stream Beat","_","_","Stream Beat","_"
55,55,0,0,2,de73b361d7e5abab5b510754ad6490f0,0081555555555555d5,1,1,0,de73b361d7e5abab5b510754ad6490f0,0081555555555555d5,0,1,0,00000000000000000000000000000000,0000,0,1,0,7bba04e7bad1097ca439d2d2ad279378,1,1,0,0fff002a4e0800e0,0,1,0,"Active","_","_","Active","_","Stream Beat","_","_","Stream Beat","_"
56,56,0,0,2,f34df2163d65ec098775e0c942cba69e,0081555555555555d5,1,1,0,f34df2163d65ec098775e0c942cba69e,0081555555555555d5,0,1,0,00000000000000000000000000000000,0000,0,1,0,ec5bf7c2e99bdb36f09064ad5407515b,1,1,0,0fff002a4e0800e0,0,1,0,"Active","_","_","Active","_","Stream Beat","_","_","Stream Beat","_"
57,57,0,0,2,e79174f47c41b88726e7e8a72ca30d10,0081555555555555d5,1,1,0,e79174f47c41b88726e7e8a72ca30d10,0081555555555555d5,0,1,0,00000000000000000000000000000000,0000,0,1,0,ababe5d761b373de9ea6cb42c9e07587,1,1,0,0fff002a4e0800e0,0,1,0,"Active","_","_","Active","_","Stream Beat","_","_","Stream Beat","_"
