Sample in Buffer,Sample in Window,TRIGGER,check_40G_sim_i/system_ila_1/inst/probe0_1[3:0],check_40G_sim_i/system_ila_1/inst/probe1_1[1:0],check_40G_sim_i/system_ila_1/inst/net_slot_0_axis_tdata[127:0],check_40G_sim_i/system_ila_1/inst/net_slot_0_axis_tuser[69:0],check_40G_sim_i/system_ila_1/inst/net_slot_0_axis_tvalid,check_40G_sim_i/system_ila_1/inst/net_slot_0_axis_tready,check_40G_sim_i/system_ila_1/inst/net_slot_0_axis_tlast,check_40G_sim_i/system_ila_1/inst/net_slot_1_axis_tdata[127:0],check_40G_sim_i/system_ila_1/inst/net_slot_1_axis_tuser[69:0],check_40G_sim_i/system_ila_1/inst/net_slot_1_axis_tvalid,check_40G_sim_i/system_ila_1/inst/net_slot_1_axis_tready,check_40G_sim_i/system_ila_1/inst/net_slot_1_axis_tlast,check_40G_sim_i/system_ila_1/inst/net_slot_2_axis_tdata[127:0],check_40G_sim_i/system_ila_1/inst/net_slot_2_axis_tuser[69:0],check_40G_sim_i/system_ila_1/inst/net_slot_2_axis_tvalid,check_40G_sim_i/system_ila_1/inst/net_slot_2_axis_tlast,Interface_(i2:s0)_(axis_data_fifo_5_M_AXIS)[2:0],Interface_(i2:s1)_(axis_data_fifo_4_M_AXIS)[2:0],Interface_(i2:s2)_(l_ethernet_0_axis_rx_0)[2:0],T_Channel_(i2:s0)_(axis_data_fifo_5_M_AXIS)[2:0],T_Channel_(i2:s1)_(axis_data_fifo_4_M_AXIS)[2:0],T_Channel_(i2:s2)_(l_ethernet_0_axis_rx_0)[2:0]
Radix - UNSIGNED,UNSIGNED,UNSIGNED,HEX,HEX,HEX,HEX,HEX,HEX,HEX,HEX,HEX,HEX,HEX,HEX,HEX,HEX,HEX,HEX,HEX,HEX,HEX,HEX,HEX,HEX
0,0,0,0,1,00000000000000000000000000000000,000000000000000000,0,1,0,00000000000000000000000000000000,000000000000000000,0,0,0,00000000000000000000000000000000,000000000000000000,0,0,"_","_","_","_","_","_"
1,1,0,0,1,00000000000000000000000000000000,000000000000000000,0,1,0,00000000000000000000000000000000,000000000000000000,0,0,0,00000000000000000000000000000000,000000000000000000,0,0,"_","_","_","_","_","_"
2,2,0,0,1,00000000000000000000000000000000,000000000000000000,0,1,0,00000000000000000000000000000000,000000000000000000,0,0,0,00000000000000000000000000000000,000000000000000000,0,0,"_","_","_","_","_","_"
3,3,0,0,1,00000000000000000000000000000000,000000000000000000,0,1,0,00000000000000000000000000000000,000000000000000000,0,0,0,00000000000000000000000000000000,000000000000000000,0,0,"_","_","_","_","_","_"
4,4,0,0,1,00000000000000000000000000000000,000000000000000000,0,1,0,00000000000000000000000000000000,000000000000000000,0,0,0,00000000000000000000000000000000,000000000000000000,0,0,"_","_","_","_","_","_"
5,5,0,0,1,00000000000000000000000000000000,000000000000000000,0,1,0,00000000000000000000000000000000,000000000000000000,0,0,0,00000000000000000000000000000000,000000000000000000,0,0,"_","_","_","_","_","_"
6,6,0,0,1,00000000000000000000000000000000,000000000000000000,0,1,0,00000000000000000000000000000000,000000000000000000,0,0,0,00000000000000000000000000000000,000000000000000000,0,0,"_","_","_","_","_","_"
7,7,0,0,1,00000000000000000000000000000000,000000000000000000,0,1,0,00000000000000000000000000000000,000000000000000000,0,0,0,00000000000000000000000000000000,000000000000000000,0,0,"_","_","_","_","_","_"
8,8,0,0,1,00000000000000000000000000000000,000000000000000000,0,1,0,00000000000000000000000000000000,000000000000000000,0,0,0,00000000000000000000000000000000,000000000000000000,0,0,"_","_","_","_","_","_"
9,9,0,0,1,00000000000000000000000000000000,000000000000000000,0,1,0,00000000000000000000000000000000,000000000000000000,0,0,0,00000000000000000000000000000000,000000000000000000,0,0,"_","_","_","_","_","_"
10,10,0,0,1,00000000000000000000000000000000,000000000000000000,0,1,0,00000000000000000000000000000000,000000000000000000,0,0,0,00000000000000000000000000000000,000000000000000000,0,0,"_","_","_","_","_","_"
11,11,0,0,1,00000000000000000000000000000000,000000000000000000,0,1,0,00000000000000000000000000000000,000000000000000000,0,0,0,00000000000000000000000000000000,000000000000000000,0,0,"_","_","_","_","_","_"
12,12,0,0,1,00000000000000000000000000000000,000000000000000000,0,1,0,00000000000000000000000000000000,000000000000000000,0,0,0,00000000000000000000000000000000,000000000000000000,0,0,"_","_","_","_","_","_"
13,13,0,1,1,00000000000000000000000000000000,000000000000000000,0,1,0,00000000000000000000000000000000,000000000000000000,0,0,0,00000000000000000000000000000000,000000000000000000,0,0,"_","_","_","_","_","_"
14,14,0,1,1,00000000000000000000000000000000,000000000000000000,0,1,0,00000000000000000000000000000000,000000000000000000,0,0,0,00000000000000000000000000000000,000000000000000000,0,0,"_","_","_","_","_","_"
15,15,0,1,1,00000000000000000000000000000000,000000000000000000,0,1,0,00000000000000000000000000000000,000000000000000000,0,0,0,00000000000000000000000000000000,000000000000000000,0,0,"_","_","_","_","_","_"
16,16,0,1,1,00000000000000000000000000000000,000000000000000000,0,1,0,00000000000000000000000000000000,000000000000000000,0,0,0,00000000000000000000000000000000,000000000000000000,0,0,"_","_","_","_","_","_"
17,17,0,1,1,00000000000000000000000000000000,000000000000000000,0,1,0,00000000000000000000000000000000,000000000000000000,0,0,0,00000000000000000000000000000000,000000000000000000,0,0,"_","_","_","_","_","_"
18,18,0,1,1,00000000000000000000000000000000,000000000000000000,0,1,0,00000000000000000000000000000000,000000000000000000,0,0,0,00000000000000000000000000000000,000000000000000000,0,0,"_","_","_","_","_","_"
19,19,0,1,1,00000000000000000000000000000000,000000000000000000,0,1,0,0200aefe413bbb000002ffffffffffff,008300000000000000,1,1,0,00000000000000000000000000000000,000000000000000000,0,0,"_","Active","_","_","Stream Beat","_"
20,20,0,1,1,00000000000000000000000000000000,000000000000000000,0,1,0,30120000010a80720500000001000000,008100000000000000,1,1,0,00000000000000000000000000000000,000000000000000000,0,0,"_","Active","_","_","Stream Beat","_"
21,21,0,1,1,00000000000000000000000000000000,000000000000000000,0,1,0,75110a0000080050008bff0ffeff0800,008100000000000000,1,1,0,00000000000000000000000000000000,000000000000000000,0,0,"_","Active","_","_","Stream Beat","_"
22,22,0,1,1,00000000000000000000000000000000,000000000000000000,0,1,0,d5ffaff97afa5148befa84f860aac055,008100000000000000,1,1,0,00000000000000000000000000000000,000000000000000000,0,0,"_","Active","_","_","Stream Beat","_"
23,23,0,1,1,0200aefe413bbb000002ffffffffffff,008300000000000000,1,1,0,8c6edfb0efdd7bae1ab88f5a07e370e6,008100000000000000,1,1,0,00000000000000000000000000000000,000000000000000000,0,0,"Active","Active","_","Stream Beat","Stream Beat","_"
24,24,0,1,1,30120000010a80720500000001000000,008100000000000000,1,1,0,503b7bc2ced6f58ea994dcb3f9e87011,008100000000000000,1,1,0,00000000000000000000000000000000,000000000000000000,0,0,"Active","Active","_","Stream Beat","Stream Beat","_"
25,25,0,1,1,75110a0000080050008bff0ffeff0800,008100000000000000,1,1,0,e8bfbebe8f3257b73a10882a8a7b7760,008100000000000000,1,1,0,00000000000000000000000000000000,000000000000000000,0,0,"Active","Active","_","Stream Beat","Stream Beat","_"
26,26,0,1,1,d5ffaff97afa5148befa84f860aac055,008100000000000000,1,1,0,c7830b1b9618f29fe4b4a11087cf0a18,008100000000000000,1,1,0,00000000000000000000000000000000,000000000000000000,0,0,"Active","Active","_","Stream Beat","Stream Beat","_"
27,27,0,1,1,8c6edfb0efdd7bae1ab88f5a07e370e6,008100000000000000,1,1,0,71b9df07bbb65a26ac60179a3be46bb7,008100000000000000,1,1,0,00000000000000000000000000000000,000000000000000000,0,0,"Active","Active","_","Stream Beat","Stream Beat","_"
28,28,0,1,1,503b7bc2ced6f58ea994dcb3f9e87011,008100000000000000,1,1,0,67c80a0fdc38e2faad6ef3c5cf64a17d,008100000000000000,1,1,0,00000000000000000000000000000000,000000000000000000,0,0,"Active","Active","_","Stream Beat","Stream Beat","_"
29,29,0,1,1,e8bfbebe8f3257b73a10882a8a7b7760,008100000000000000,1,1,0,21eee8e324aedc802c7cc5b4c2948bbb,008100000000000000,1,1,0,00000000000000000000000000000000,000000000000000000,0,0,"Active","Active","_","Stream Beat","Stream Beat","_"
30,30,0,1,1,c7830b1b9618f29fe4b4a11087cf0a18,008100000000000000,1,1,0,7e9ccf87ad722a56dc80f7b135ca67b0,008100000000000000,1,1,0,00000000000000000000000000000000,000000000000000000,0,0,"Active","Active","_","Stream Beat","Stream Beat","_"
31,31,0,1,1,71b9df07bbb65a26ac60179a3be46bb7,008100000000000000,1,1,0,1e6286bbdd244aa5ebe43c8caddc2bef,008100000000000000,1,1,0,00000000000000000000000000000000,000000000000000000,0,0,"Active","Active","_","Stream Beat","Stream Beat","_"
32,32,0,1,1,67c80a0fdc38e2faad6ef3c5cf64a17d,008100000000000000,1,1,0,eb46a553116696f4e2bc31f277e7dfb1,008100000000000000,1,1,0,00000000000000000000000000000000,000000000000000000,0,0,"Active","Active","_","Stream Beat","Stream Beat","_"
33,33,0,1,1,21eee8e324aedc802c7cc5b4c2948bbb,008100000000000000,1,1,0,593256bd0739e8a17e6b64474e444f9a,008100000000000000,1,1,0,00000000000000000000000000000000,000000000000000000,0,0,"Active","Active","_","Stream Beat","Stream Beat","_"
34,34,0,1,1,7e9ccf87ad722a56dc80f7b135ca67b0,008100000000000000,1,1,0,5ce2064d5de66e4c4b70704d097375be,008100000000000000,1,1,0,00000000000000000000000000000000,000000000000000000,0,0,"Active","Active","_","Stream Beat","Stream Beat","_"
35,35,0,1,1,1e6286bbdd244aa5ebe43c8caddc2bef,008100000000000000,1,1,0,d2175f22f6bd9884da4185a499ed5e87,008100000000000000,1,1,0,00000000000000000000000000000000,000000000000000000,0,0,"Active","Active","_","Stream Beat","Stream Beat","_"
36,36,0,1,1,eb46a553116696f4e2bc31f277e7dfb1,008100000000000000,1,1,0,728be390e64e2ad2cece81b720171158,008100000000000000,1,1,0,00000000000000000000000000000000,000000000000000000,0,0,"Active","Active","_","Stream Beat","Stream Beat","_"
37,37,0,1,1,593256bd0739e8a17e6b64474e444f9a,008100000000000000,1,1,0,00128200e75dbda69c7ce376b422533d,008100000000000000,1,1,0,00000000000000000000000000000000,000000000000000000,0,0,"Active","Active","_","Stream Beat","Stream Beat","_"
38,38,0,1,1,5ce2064d5de66e4c4b70704d097375be,008100000000000000,1,1,0,00000000000000000000000000000000,028100000000000000,1,1,1,00000000000000000000000000000000,000000000000000000,0,0,"Active","Active","_","Stream Beat","Last Stream","_"
39,39,0,1,1,d2175f22f6bd9884da4185a499ed5e87,008100000000000000,1,1,0,0200aefe413bbb000002ffffffffffff,008300000000000000,1,1,0,00000000000000000000000000000000,000000000000000000,0,0,"Active","Active","_","Stream Beat","Stream Beat","_"
40,40,0,1,1,728be390e64e2ad2cece81b720171158,008100000000000000,1,1,0,40120000010a80720500000001000000,008100000000000000,1,1,0,00000000000000000000000000000000,000000000000000000,0,0,"Active","Active","_","Stream Beat","Stream Beat","_"
41,41,0,1,1,00128200e75dbda69c7ce376b422533d,008100000000000000,1,1,0,b9110b0000040050008bff0ffeff0808,008100000000000000,1,1,0,00000000000000000000000000000000,000000000000000000,0,0,"Active","Active","_","Stream Beat","Stream Beat","_"
42,42,0,1,1,00000000000000000000000000000000,028100000000000000,1,1,1,2aeb281733aa0c9454845a71bd512c89,008100000000000000,1,1,0,00000000000000000000000000000000,000000000000000000,0,0,"Active","Active","_","Last Stream","Stream Beat","_"
43,43,0,1,1,0200aefe413bbb000002ffffffffffff,008300000000000000,1,1,0,3025cddd2799894fd44500f4e8063319,008100000000000000,1,1,0,00000000000000000000000000000000,000000000000000000,0,0,"Active","Active","_","Stream Beat","Stream Beat","_"
44,44,0,1,1,40120000010a80720500000001000000,008100000000000000,1,1,0,6531d3e09798409f72d7f6c6c7bad841,008100000000000000,1,1,0,00000000000000000000000000000000,000000000000000000,0,0,"Active","Active","_","Stream Beat","Stream Beat","_"
45,45,0,1,1,b9110b0000040050008bff0ffeff0808,008100000000000000,1,1,0,9c896d2c46ad51b32d21e4abfd602448,008100000000000000,1,1,0,00000000000000000000000000000000,000000000000000000,0,0,"Active","Active","_","Stream Beat","Stream Beat","_"
46,46,0,1,1,2aeb281733aa0c9454845a71bd512c89,008100000000000000,1,1,0,881b692fc3d8e74ae88a0726ea9ebfd2,008100000000000000,1,1,0,00000000000000000000000000000000,000000000000000000,0,0,"Active","Active","_","Stream Beat","Stream Beat","_"
47,47,0,1,1,3025cddd2799894fd44500f4e8063319,008100000000000000,1,1,0,7070a32fa0014921b835b5a5c032a844,008100000000000000,1,1,0,00000000000000000000000000000000,000000000000000000,0,0,"Active","Active","_","Stream Beat","Stream Beat","_"
48,48,0,1,1,6531d3e09798409f72d7f6c6c7bad841,008100000000000000,1,1,0,c2d6baa8b81ac604524d4255a8ed654f,008100000000000000,1,1,0,00000000000000000000000000000000,000000000000000000,0,0,"Active","Active","_","Stream Beat","Stream Beat","_"
49,49,0,1,1,9c896d2c46ad51b32d21e4abfd602448,008100000000000000,1,1,0,83c4a89401f014c3956c7301f926f10e,008100000000000000,1,1,0,00000000000000000000000000000000,000000000000000000,0,0,"Active","Active","_","Stream Beat","Stream Beat","_"
50,50,0,1,1,881b692fc3d8e74ae88a0726ea9ebfd2,008100000000000000,1,1,0,0a80f41f4dbacffdcdf2bb402e599138,008100000000000000,1,1,0,00000000000000000000000000000000,000000000000000000,0,0,"Active","Active","_","Stream Beat","Stream Beat","_"
51,51,0,1,1,7070a32fa0014921b835b5a5c032a844,008100000000000000,1,0,0,0b5c6a4995df51dd1bfe2702ff3622fc,008100000000000000,1,1,0,00000000000000000000000000000000,000000000000000000,0,0,"_","Active","_","_","Stream Beat","_"
52,52,0,1,1,7070a32fa0014921b835b5a5c032a844,008100000000000000,1,1,0,b4105ed5b83ef9a2fe05efa289484d63,008100000000000000,1,1,0,00000000000000000000000000000000,000000000000000000,0,0,"Active","Active","_","Stream Beat","Stream Beat","_"
53,53,0,1,1,c2d6baa8b81ac604524d4255a8ed654f,008100000000000000,1,1,0,933edd4894dadd085b0ab495051afe17,008100000000000000,1,1,0,00000000000000000000000000000000,000000000000000000,0,0,"Active","Active","_","Stream Beat","Stream Beat","_"
54,54,0,1,1,83c4a89401f014c3956c7301f926f10e,008100000000000000,1,1,0,5cc3e5c32cfffd9adb8de202620860ce,008100000000000000,1,1,0,00000000000000000000000000000000,000000000000000000,0,0,"Active","Active","_","Stream Beat","Stream Beat","_"
55,55,0,1,1,0a80f41f4dbacffdcdf2bb402e599138,008100000000000000,1,1,0,17fb130c8901e19968d17136e8170921,008100000000000000,1,1,0,00000000000000000000000000000000,000000000000000000,0,0,"Active","Active","_","Stream Beat","Stream Beat","_"
56,56,0,1,1,0b5c6a4995df51dd1bfe2702ff3622fc,008100000000000000,1,1,0,f5a54cb7b06bd979ac69757938da283e,008100000000000000,1,1,0,00000000000000000000000000000000,000000000000000000,0,0,"Active","Active","_","Stream Beat","Stream Beat","_"
57,57,0,1,1,b4105ed5b83ef9a2fe05efa289484d63,008100000000000000,1,1,0,004df7bc3ff50ecaa259a4fd5fad398c,008100000000000000,1,1,0,00000000000000000000000000000000,000000000000000000,0,0,"Active","Active","_","Stream Beat","Stream Beat","_"
58,58,0,1,1,933edd4894dadd085b0ab495051afe17,008100000000000000,1,1,0,d0425a150b9e76e423232eb2a501120b,008100000000000000,1,1,0,00000000000000000000000000000000,000000000000000000,0,0,"Active","Active","_","Stream Beat","Stream Beat","_"
59,59,0,1,1,5cc3e5c32cfffd9adb8de202620860ce,008100000000000000,1,1,0,936a7b3d73cc2c8b6bd73708860ecdd4,008100000000000000,1,1,0,00000000000000000000000000000000,000000000000000000,0,0,"Active","Active","_","Stream Beat","Stream Beat","_"
60,60,0,1,1,17fb130c8901e19968d17136e8170921,008100000000000000,1,1,0,6e424217f9354e39b938846743b4b93e,008100000000000000,1,1,0,00000000000000000000000000000000,000000000000000000,0,0,"Active","Active","_","Stream Beat","Stream Beat","_"
61,61,0,1,1,f5a54cb7b06bd979ac69757938da283e,008100000000000000,1,1,0,71502a500c66c741bbb49bc9d9983602,008100000000000000,1,1,0,00000000000000000000000000000000,000000000000000000,0,0,"Active","Active","_","Stream Beat","Stream Beat","_"
62,62,0,1,1,004df7bc3ff50ecaa259a4fd5fad398c,008100000000000000,1,1,0,d6afe8485a8238ed2607dfaf19d42bd5,008100000000000000,1,1,0,00000000000000000000000000000000,000000000000000000,0,0,"Active","Active","_","Stream Beat","Stream Beat","_"
63,63,0,1,1,d0425a150b9e76e423232eb2a501120b,008100000000000000,1,1,0,4c84a012ce641c196120cc0c26387882,008100000000000000,1,1,0,00000000000000000000000000000000,000000000000000000,0,0,"Active","Active","_","Stream Beat","Stream Beat","_"
64,64,0,1,1,936a7b3d73cc2c8b6bd73708860ecdd4,008100000000000000,1,1,0,5da33ad873982649912108b2d39ca062,008100000000000000,1,1,0,00000000000000000000000000000000,000000000000000000,0,0,"Active","Active","_","Stream Beat","Stream Beat","_"
65,65,0,1,1,6e424217f9354e39b938846743b4b93e,008100000000000000,1,1,0,b87811289f14e25c9b05355175a0f6e3,008100000000000000,1,1,0,00000000000000000000000000000000,000000000000000000,0,0,"Active","Active","_","Stream Beat","Stream Beat","_"
66,66,0,1,1,71502a500c66c741bbb49bc9d9983602,008100000000000000,1,1,0,236dcca334cc8b080d388ae4bffc52f3,008100000000000000,1,1,0,00000000000000000000000000000000,000000000000000000,0,0,"Active","Active","_","Stream Beat","Stream Beat","_"
67,67,0,1,1,d6afe8485a8238ed2607dfaf19d42bd5,008100000000000000,1,1,0,6eb1cf0a3d9c725a5d7204ecb15320ee,008100000000000000,1,1,0,00000000000000000000000000000000,000000000000000000,0,0,"Active","Active","_","Stream Beat","Stream Beat","_"
68,68,0,1,1,4c84a012ce641c196120cc0c26387882,008100000000000000,1,1,0,3cc365c00ebbedd54f8804bb63907932,008100000000000000,1,1,0,00000000000000000000000000000000,000000000000000000,0,0,"Active","Active","_","Stream Beat","Stream Beat","_"
69,69,0,1,1,5da33ad873982649912108b2d39ca062,008100000000000000,1,1,0,d73c1b0df5d6203d6b32225e84c09689,008100000000000000,1,1,0,00000000000000000000000000000000,000000000000000000,0,0,"Active","Active","_","Stream Beat","Stream Beat","_"
70,70,0,1,1,b87811289f14e25c9b05355175a0f6e3,008100000000000000,1,1,0,027b2dd1c3ccb1ccb2d00e7772a2100c,008100000000000000,1,1,0,00000000000000000000000000000000,000000000000000000,0,0,"Active","Active","_","Stream Beat","Stream Beat","_"
71,71,0,1,1,236dcca334cc8b080d388ae4bffc52f3,008100000000000000,1,1,0,00120ff89d5b560ce60ebaa8bbf062ce,008100000000000000,1,1,0,00000000000000000000000000000000,000000000000000000,0,0,"Active","Active","_","Stream Beat","Stream Beat","_"
72,72,0,1,1,6eb1cf0a3d9c725a5d7204ecb15320ee,008100000000000000,1,1,0,5feee23f8ab13c08be165ea77101136c,008100000000000000,1,1,0,00000000000000000000000000000000,000000000000000000,0,0,"Active","Active","_","Stream Beat","Stream Beat","_"
73,73,0,1,1,3cc365c00ebbedd54f8804bb63907932,008100000000000000,1,1,0,02547467ecf01ffc3f5e872b1b363848,008100000000000000,1,1,0,00000000000000000000000000000000,000000000000000000,0,0,"Active","Active","_","Stream Beat","Stream Beat","_"
74,74,0,1,1,d73c1b0df5d6203d6b32225e84c09689,008100000000000000,1,1,0,0000000000000000000000000000a945,028100000000000000,1,1,1,00000000000000000000000000000000,000000000000000000,0,0,"Active","Active","_","Stream Beat","Last Stream","_"
75,75,0,1,1,027b2dd1c3ccb1ccb2d00e7772a2100c,008100000000000000,1,1,0,0200aefe413bbb000002ffffffffffff,008300000000000000,1,1,0,00000000000000000000000000000000,000000000000000000,0,0,"Active","Active","_","Stream Beat","Stream Beat","_"
76,76,0,1,1,00120ff89d5b560ce60ebaa8bbf062ce,008100000000000000,1,1,0,50120000010a80720500000001000000,008100000000000000,1,1,0,00000000000000000000000000000000,000000000000000000,0,0,"Active","Active","_","Stream Beat","Stream Beat","_"
77,77,0,1,1,5feee23f8ab13c08be165ea77101136c,008100000000000000,1,1,0,46110c0000040050008bff0ffeff0c10,008100000000000000,1,1,0,00000000000000000000000000000000,000000000000000000,0,0,"Active","Active","_","Stream Beat","Stream Beat","_"
78,78,0,1,1,02547467ecf01ffc3f5e872b1b363848,008100000000000000,1,1,0,52f8eeaf63a91a39314599f9e5ee4c54,008100000000000000,1,1,0,00000000000000000000000000000000,000000000000000000,0,0,"Active","Active","_","Stream Beat","Stream Beat","_"
79,79,0,1,1,0000000000000000000000000000a945,028100000000000000,1,1,1,aa5a1e5d329c72bd3412891cb2a32821,008100000000000000,1,1,0,00000000000000000000000000000000,000000000000000000,0,0,"Active","Active","_","Last Stream","Stream Beat","_"
80,80,0,1,1,0200aefe413bbb000002ffffffffffff,008300000000000000,1,1,0,7c09d1bae704ba7be62263cd3dc8012c,008100000000000000,1,1,0,00000000000000000000000000000000,000000000000000000,0,0,"Active","Active","_","Stream Beat","Stream Beat","_"
